T4560 043:920 SEGGER J-Link V5.02f Log File (0000ms, 2600ms total)
T4560 043:920 DLL Compiled: Oct  2 2015 20:51:34 (0000ms, 2600ms total)
T4560 043:920 Logging started @ 2022-11-30 12:14 (0000ms, 2600ms total)
T4560 043:920 JLINK_SetWarnOutHandler(...) (0000ms, 2600ms total)
T4560 043:920 JLINK_OpenEx(...)
Firmware: J-Link ARM V8 compiled Nov 28 2014 13:44:46
Hardware: V8.00
Feature(s): RDI,FlashDL,FlashBP,JFlash,GDBFULLDevice "UNSPECIFIED" selected.  returns O.K. (0325ms, 2925ms total)
T4560 044:245 JLINK_GetEmuCaps()  returns 0xF9FF7BFF (0000ms, 2925ms total)
T4560 044:247 JLINK_TIF_GetAvailable(...) (0002ms, 2927ms total)
T4560 044:249 JLINK_SetErrorOutHandler(...) (0000ms, 2927ms total)
T4560 044:249 JLINK_ExecCommand("ProjectFile = "L:\Mysoft\MotorControl_Core\12-LCEDA_Foc_Core\GB6010_Motor_AS5048A\MDK-ARM\JLinkSettings.ini"", ...)Device "UNSPECIFIED" selected.  returns 0x00 (0019ms, 2946ms total)
T4560 044:284 JLINK_ExecCommand("Device = STM32F405RGTx", ...)Device "UNSPECIFIED" selected.  returns 0x00 (0006ms, 2952ms total)
T4560 044:290 JLINK_ExecCommand("DisableConnectionTimeout", ...)  returns 0x01 (0000ms, 2952ms total)
T4560 044:290 JLINK_GetHardwareVersion()  returns 0x13880 (0000ms, 2952ms total)
T4560 044:290 JLINK_GetDLLVersion()  returns 50206 (0000ms, 2952ms total)
T4560 044:290 JLINK_GetFirmwareString(...) (0000ms, 2952ms total)
T4560 044:347 JLINK_GetDLLVersion()  returns 50206 (0000ms, 2952ms total)
T4560 044:347 JLINK_GetCompileDateTime() (0000ms, 2952ms total)
T4560 044:368 JLINK_GetFirmwareString(...) (0000ms, 2952ms total)
T4560 044:386 JLINK_GetHardwareVersion()  returns 0x13880 (0000ms, 2952ms total)
T4560 044:427 JLINK_TIF_Select(JLINKARM_TIF_SWD)  returns 0x00 (0006ms, 2958ms total)
T4560 044:433 JLINK_SetSpeed(1000) (0000ms, 2958ms total)
T4560 044:433 JLINK_GetId() >0x108 TIF>Found SWD-DP with ID 0x2BA01477 >0x0D TIF> >0x21 TIF> >0x0D TIF> >0x28 TIF> >0x0D TIF> >0x28 TIF> >0x0D TIF> >0x21 TIF> >0x0D TIF> >0x28 TIF> >0x0D TIF> >0x21 TIF> >0x0D TIF> >0x21 TIF> >0x0D TIF> >0x21 TIF> >0x0D TIF> >0x21 TIF> >0x0D TIF> >0x28 TIF> >0x0D TIF> >0x28 TIF> >0x0D TIF> >0x21 TIF> >0x0D TIF> >0x28 TIF> >0x0D TIF> >0x28 TIF> >0x0D TIF> >0x28 TIF> >0x0D TIF> >0x21 TIF> >0x0D TIF> >0x21 TIF> >0x0D TIF> >0x28 TIF> >0x0D TIF> >0x21 TIF> >0x0D TIF>
 >0x21 TIF>Found Cortex-M4 r0p1, Little endian. -- CPU_ReadMem(4 bytes @ 0xE000EDF0) -- CPU_ReadMem(4 bytes @ 0xE0002000)FPUnit: 6 code (BP) slots and 2 literal slots -- CPU_ReadMem(4 bytes @ 0xE000EDFC) -- CPU_ReadMem(4 bytes @ 0xE0001000) -- CPU_WriteMem(4 bytes @ 0xE0001000) -- CPU_ReadMem(4 bytes @ 0xE000ED88) -- CPU_WriteMem(4 bytes @ 0xE000ED88) -- CPU_ReadMem(4 bytes @ 0xE000ED88) -- CPU_WriteMem(4 bytes @ 0xE000ED88)CoreSight components:ROMTbl 0 @ E00FF000 -- CPU_ReadMem(16 bytes @ 0xE00FF000)
 -- CPU_ReadMem(16 bytes @ 0xE000EFF0) -- CPU_ReadMem(16 bytes @ 0xE000EFE0)ROMTbl 0 [0]: FFF0F000, CID: B105E00D, PID: 000BB00C SCS -- CPU_ReadMem(16 bytes @ 0xE0001FF0) -- CPU_ReadMem(16 bytes @ 0xE0001FE0)ROMTbl 0 [1]: FFF02000, CID: B105E00D, PID: 003BB002 DWT -- CPU_ReadMem(16 bytes @ 0xE0002FF0) -- CPU_ReadMem(16 bytes @ 0xE0002FE0)ROMTbl 0 [2]: FFF03000, CID: B105E00D, PID: 002BB003 FPB -- CPU_ReadMem(16 bytes @ 0xE0000FF0) -- CPU_ReadMem(16 bytes @ 0xE0000FE0)
ROMTbl 0 [3]: FFF01000, CID: B105E00D, PID: 003BB001 ITM -- CPU_ReadMem(16 bytes @ 0xE00FF010) -- CPU_ReadMem(16 bytes @ 0xE0040FF0) -- CPU_ReadMem(16 bytes @ 0xE0040FE0)ROMTbl 0 [4]: FFF41000, CID: B105900D, PID: 000BB9A1 TPIU -- CPU_ReadMem(16 bytes @ 0xE0041FF0) -- CPU_ReadMem(16 bytes @ 0xE0041FE0)ROMTbl 0 [5]: FFF42000, CID: 00000000, PID: 00000000 ??? >0x0D TIF> >0x21 TIF>  returns 0x2BA01477 (0182ms, 3140ms total)
T4560 044:615 JLINK_GetDLLVersion()  returns 50206 (0000ms, 3140ms total)
T4560 044:615 JLINK_CORE_GetFound()  returns 0xE0000FF (0002ms, 3142ms total)
T4560 044:617 JLINK_GetDebugInfo(0x100) -- Value=0xE00FF003  returns 0x00 (0000ms, 3142ms total)
T4560 044:621 JLINK_GetDebugInfo(0x100) -- Value=0xE00FF003  returns 0x00 (0000ms, 3142ms total)
T4560 044:621 JLINK_GetDebugInfo(0x101) -- Value=0x00000000  returns 0x00 (0000ms, 3142ms total)
T4560 044:622 JLINK_ReadMemEx(0xE0041FF0, 0x0010 Bytes, ..., AccessWidth = 33554436) -- CPU is running -- CPU_ReadMem(16 bytes @ 0xE0041FF0) - Data: 00 00 00 00 00 00 00 00 00 00 00 00 00 00 00 00  returns 0x10 (0001ms, 3143ms total)
T4560 044:623 JLINK_GetDebugInfo(0x102) -- Value=0x00000000  returns 0x00 (0000ms, 3143ms total)
T4560 044:623 JLINK_GetDebugInfo(0x103) -- Value=0xE0040000  returns 0x00 (0000ms, 3143ms total)
T4560 044:623 JLINK_GetDebugInfo(0x104) -- Value=0xE0000000  returns 0x00 (0000ms, 3143ms total)
T4560 044:623 JLINK_GetDebugInfo(0x105) -- Value=0xE0001000  returns 0x00 (0000ms, 3143ms total)
T4560 044:623 JLINK_GetDebugInfo(0x106) -- Value=0xE0002000  returns 0x00 (0000ms, 3143ms total)
T4560 044:623 JLINK_GetDebugInfo(0x107) -- Value=0xE000E000  returns 0x00 (0000ms, 3143ms total)
T4560 044:623 JLINK_GetDebugInfo(0x10C) -- Value=0xE000EDF0  returns 0x00 (0000ms, 3143ms total)
T4560 044:623 JLINK_GetDebugInfo(0x01)  returns 0xFFFFFFFF (0000ms, 3143ms total)
T4560 044:623 JLINK_GetDeviceFamily()  returns 14 (0001ms, 3144ms total)
T4560 044:624 JLINK_ReadMemU32(0xE000ED00, 0x0001 Items, ...) -- CPU is running -- CPU_ReadMem(4 bytes @ 0xE000ED00) - Data: 41 C2 0F 41  returns 0x01 (0001ms, 3145ms total)
T4560 044:625 JLINK_GetDebugInfo(0x10F)  returns 0xFFFFFFFF (0000ms, 3145ms total)
T4560 044:625 JLINK_SetResetType(JLINKARM_RESET_TYPE_NORMAL)  returns JLINKARM_RESET_TYPE_NORMAL (0000ms, 3145ms total)
T4560 044:625 JLINK_Reset() -- CPU is running -- CPU_WriteMem(4 bytes @ 0xE000EDF0) -- CPU is running -- CPU_WriteMem(4 bytes @ 0xE000EDFC) >0x35 TIF> -- CPU is running -- CPU_WriteMem(4 bytes @ 0xE000ED0C) -- CPU is running -- CPU_ReadMem(4 bytes @ 0xE000EDF0) -- CPU is running -- CPU_ReadMem(4 bytes @ 0xE000EDF0) -- CPU is running -- CPU_WriteMem(4 bytes @ 0xE000EDF0) -- CPU is running -- CPU_WriteMem(4 bytes @ 0xE000EDFC) -- CPU is running -- CPU_ReadMem(4 bytes @ 0xE000EDF0)
 -- CPU_WriteMem(4 bytes @ 0xE0002000) -- CPU_ReadMem(4 bytes @ 0xE000EDFC) -- CPU_ReadMem(4 bytes @ 0xE0001000) (0039ms, 3184ms total)
T4560 044:664 JLINK_Halt()  returns 0x00 (0000ms, 3184ms total)
T4560 044:664 JLINK_ReadMemU32(0xE000EDF0, 0x0001 Items, ...) -- CPU_ReadMem(4 bytes @ 0xE000EDF0) - Data: 03 00 03 00  returns 0x01 (0002ms, 3186ms total)
T4560 044:666 JLINK_WriteU32(0xE000EDF0, 0xA05F0003) -- CPU_WriteMem(4 bytes @ 0xE000EDF0)  returns 0x00 (0002ms, 3188ms total)
T4560 044:668 JLINK_WriteU32(0xE000EDFC, 0x01000000) -- CPU_WriteMem(4 bytes @ 0xE000EDFC)  returns 0x00 (0002ms, 3190ms total)
T4560 044:685 JLINK_GetHWStatus(...)  returns 0x00 (0002ms, 3192ms total)
T4560 044:700 JLINK_GetNumBPUnits(Type = 0xFFFFFF00)  returns 0x06 (0000ms, 3192ms total)
T4560 044:700 JLINK_GetNumBPUnits(Type = 0xF0)  returns 0x2000 (0000ms, 3192ms total)
T4560 044:700 JLINK_GetNumWPUnits()  returns 0x04 (0000ms, 3192ms total)
T4560 044:710 JLINK_GetSpeed()  returns 0x3E8 (0000ms, 3192ms total)
T4560 044:718 JLINK_ReadMemU32(0xE000E004, 0x0001 Items, ...) -- CPU_ReadMem(4 bytes @ 0xE000E004) - Data: 02 00 00 00  returns 0x01 (0001ms, 3193ms total)
T4560 044:719 JLINK_ReadMemU32(0xE000E004, 0x0001 Items, ...) -- CPU_ReadMem(4 bytes @ 0xE000E004) - Data: 02 00 00 00  returns 0x01 (0002ms, 3195ms total)
T4560 044:721 JLINK_WriteMemEx(0xE0001000, 0x001C Bytes, ..., AccessWidth = 33554436) - Data: 01 00 00 00 00 00 00 00 00 00 00 00 00 00 00 00 ... -- CPU_WriteMem(28 bytes @ 0xE0001000)  returns 0x1C (0002ms, 3197ms total)
T4560 044:723 JLINK_Halt()  returns 0x00 (0000ms, 3197ms total)
T4560 044:723 JLINK_IsHalted()  returns TRUE (0000ms, 3197ms total)
T4560 044:730 JLINK_WriteMem(0x20000000, 0x0180 Bytes, ...) - Data: 00 BE 0A E0 0D 78 2D 06 68 40 08 24 40 00 00 D3 ... -- CPU_WriteMem(384 bytes @ 0x20000000)  returns 0x180 (0008ms, 3205ms total)
T4560 044:738 JLINK_WriteReg(R0, 0x08000000)  returns 0x00 (0000ms, 3205ms total)
T4560 044:738 JLINK_WriteReg(R1, 0x007A1200)  returns 0x00 (0000ms, 3205ms total)
T4560 044:738 JLINK_WriteReg(R2, 0x00000001)  returns 0x00 (0000ms, 3205ms total)
T4560 044:738 JLINK_WriteReg(R3, 0x00000000)  returns 0x00 (0000ms, 3205ms total)
T4560 044:738 JLINK_WriteReg(R4, 0x00000000)  returns 0x00 (0000ms, 3205ms total)
T4560 044:738 JLINK_WriteReg(R5, 0x00000000)  returns 0x00 (0000ms, 3205ms total)
T4560 044:738 JLINK_WriteReg(R6, 0x00000000)  returns 0x00 (0000ms, 3205ms total)
T4560 044:738 JLINK_WriteReg(R7, 0x00000000)  returns 0x00 (0000ms, 3205ms total)
T4560 044:738 JLINK_WriteReg(R8, 0x00000000)  returns 0x00 (0000ms, 3205ms total)
T4560 044:738 JLINK_WriteReg(R9, 0x2000017C)  returns 0x00 (0000ms, 3205ms total)
T4560 044:738 JLINK_WriteReg(R10, 0x00000000)  returns 0x00 (0000ms, 3205ms total)
T4560 044:738 JLINK_WriteReg(R11, 0x00000000)  returns 0x00 (0001ms, 3206ms total)
T4560 044:739 JLINK_WriteReg(R12, 0x00000000)  returns 0x00 (0000ms, 3206ms total)
T4560 044:739 JLINK_WriteReg(R13 (SP), 0x20001000)  returns 0x00 (0000ms, 3206ms total)
T4560 044:739 JLINK_WriteReg(R14, 0x20000001)  returns 0x00 (0000ms, 3206ms total)
T4560 044:739 JLINK_WriteReg(R15 (PC), 0x20000054)  returns 0x00 (0000ms, 3206ms total)
T4560 044:739 JLINK_WriteReg(XPSR, 0x01000000)  returns 0x00 (0000ms, 3206ms total)
T4560 044:739 JLINK_WriteReg(MSP, 0x20001000)  returns 0x00 (0000ms, 3206ms total)
T4560 044:739 JLINK_WriteReg(PSP, 0x20001000)  returns 0x00 (0000ms, 3206ms total)
T4560 044:739 JLINK_WriteReg(CFBP, 0x00000000)  returns 0x00 (0000ms, 3206ms total)
T4560 044:739 JLINK_SetBPEx(Addr = 0x20000000, Type = 0xFFFFFFF2) -- CPU_ReadMem(4 bytes @ 0x20000000) -- CPU_WriteMem(4 bytes @ 0x20000000) -- CPU_ReadMem(4 bytes @ 0x20000000) -- CPU_WriteMem(4 bytes @ 0x20000000) -- CPU_ReadMem(2 bytes @ 0x20000000)  returns 0x00000001 (0009ms, 3215ms total)
T4560 044:748 JLINK_Go() -- CPU_WriteMem(2 bytes @ 0x20000000) -- CPU_ReadMem(4 bytes @ 0xE0001000) -- CPU_WriteMem(4 bytes @ 0xE0002008) -- CPU_WriteMem(4 bytes @ 0xE000200C) -- CPU_WriteMem(4 bytes @ 0xE0002010) -- CPU_WriteMem(4 bytes @ 0xE0002014) -- CPU_WriteMem(4 bytes @ 0xE0002018) -- CPU_WriteMem(4 bytes @ 0xE000201C) -- CPU_WriteMem(4 bytes @ 0xE0001004) (0019ms, 3234ms total)
T4560 044:767 JLINK_IsHalted() -- CPU_ReadMem(2 bytes @ 0x20000000)  returns TRUE (0009ms, 3243ms total)
T4560 044:776 JLINK_ReadReg(R15 (PC))  returns 0x20000000 (0000ms, 3234ms total)
T4560 044:776 JLINK_ClrBPEx(BPHandle = 0x00000001)  returns 0x00 (0000ms, 3234ms total)
T4560 044:776 JLINK_ReadReg(R0)  returns 0x00000000 (0000ms, 3234ms total)
T4560 044:777 JLINK_WriteReg(R0, 0x08000000)  returns 0x00 (0000ms, 3234ms total)
T4560 044:777 JLINK_WriteReg(R1, 0x00004000)  returns 0x00 (0000ms, 3234ms total)
T4560 044:777 JLINK_WriteReg(R2, 0x000000FF)  returns 0x00 (0000ms, 3234ms total)
T4560 044:777 JLINK_WriteReg(R3, 0x00000000)  returns 0x00 (0000ms, 3234ms total)
T4560 044:777 JLINK_WriteReg(R4, 0x00000000)  returns 0x00 (0000ms, 3234ms total)
T4560 044:777 JLINK_WriteReg(R5, 0x00000000)  returns 0x00 (0000ms, 3234ms total)
T4560 044:777 JLINK_WriteReg(R6, 0x00000000)  returns 0x00 (0000ms, 3234ms total)
T4560 044:777 JLINK_WriteReg(R7, 0x00000000)  returns 0x00 (0000ms, 3234ms total)
T4560 044:777 JLINK_WriteReg(R8, 0x00000000)  returns 0x00 (0000ms, 3234ms total)
T4560 044:777 JLINK_WriteReg(R9, 0x2000017C)  returns 0x00 (0000ms, 3234ms total)
T4560 044:777 JLINK_WriteReg(R10, 0x00000000)  returns 0x00 (0000ms, 3234ms total)
T4560 044:777 JLINK_WriteReg(R11, 0x00000000)  returns 0x00 (0000ms, 3234ms total)
T4560 044:777 JLINK_WriteReg(R12, 0x00000000)  returns 0x00 (0000ms, 3234ms total)
T4560 044:777 JLINK_WriteReg(R13 (SP), 0x20001000)  returns 0x00 (0000ms, 3234ms total)
T4560 044:777 JLINK_WriteReg(R14, 0x20000001)  returns 0x00 (0000ms, 3234ms total)
T4560 044:777 JLINK_WriteReg(R15 (PC), 0x20000020)  returns 0x00 (0000ms, 3234ms total)
T4560 044:777 JLINK_WriteReg(XPSR, 0x01000000)  returns 0x00 (0000ms, 3234ms total)
T4560 044:777 JLINK_WriteReg(MSP, 0x20001000)  returns 0x00 (0000ms, 3234ms total)
T4560 044:777 JLINK_WriteReg(PSP, 0x20001000)  returns 0x00 (0000ms, 3234ms total)
T4560 044:777 JLINK_WriteReg(CFBP, 0x00000000)  returns 0x00 (0000ms, 3234ms total)
T4560 044:777 JLINK_SetBPEx(Addr = 0x20000000, Type = 0xFFFFFFF2)  returns 0x00000002 (0000ms, 3234ms total)
T4560 044:777 JLINK_Go() -- CPU_ReadMem(4 bytes @ 0xE0001000) (0007ms, 3241ms total)
T4560 044:784 JLINK_IsHalted() -- CPU_ReadMem(2 bytes @ 0x20000000)  returns TRUE (0009ms, 3250ms total)
T4560 044:793 JLINK_ReadReg(R15 (PC))  returns 0x20000000 (0000ms, 3241ms total)
T4560 044:793 JLINK_ClrBPEx(BPHandle = 0x00000002)  returns 0x00 (0000ms, 3241ms total)
T4560 044:793 JLINK_ReadReg(R0)  returns 0x00000001 (0000ms, 3241ms total)
T4560 044:793 JLINK_WriteReg(R0, 0x08000000)  returns 0x00 (0000ms, 3241ms total)
T4560 044:793 JLINK_WriteReg(R1, 0x00004000)  returns 0x00 (0000ms, 3241ms total)
T4560 044:793 JLINK_WriteReg(R2, 0x000000FF)  returns 0x00 (0000ms, 3241ms total)
T4560 044:793 JLINK_WriteReg(R3, 0x00000000)  returns 0x00 (0000ms, 3241ms total)
T4560 044:793 JLINK_WriteReg(R4, 0x00000000)  returns 0x00 (0000ms, 3241ms total)
T4560 044:793 JLINK_WriteReg(R5, 0x00000000)  returns 0x00 (0000ms, 3241ms total)
T4560 044:793 JLINK_WriteReg(R6, 0x00000000)  returns 0x00 (0001ms, 3242ms total)
T4560 044:794 JLINK_WriteReg(R7, 0x00000000)  returns 0x00 (0000ms, 3242ms total)
T4560 044:794 JLINK_WriteReg(R8, 0x00000000)  returns 0x00 (0000ms, 3242ms total)
T4560 044:794 JLINK_WriteReg(R9, 0x2000017C)  returns 0x00 (0000ms, 3242ms total)
T4560 044:794 JLINK_WriteReg(R10, 0x00000000)  returns 0x00 (0000ms, 3242ms total)
T4560 044:794 JLINK_WriteReg(R11, 0x00000000)  returns 0x00 (0000ms, 3242ms total)
T4560 044:794 JLINK_WriteReg(R12, 0x00000000)  returns 0x00 (0000ms, 3242ms total)
T4560 044:794 JLINK_WriteReg(R13 (SP), 0x20001000)  returns 0x00 (0000ms, 3242ms total)
T4560 044:794 JLINK_WriteReg(R14, 0x20000001)  returns 0x00 (0000ms, 3242ms total)
T4560 044:794 JLINK_WriteReg(R15 (PC), 0x200000BC)  returns 0x00 (0000ms, 3242ms total)
T4560 044:794 JLINK_WriteReg(XPSR, 0x01000000)  returns 0x00 (0000ms, 3242ms total)
T4560 044:794 JLINK_WriteReg(MSP, 0x20001000)  returns 0x00 (0000ms, 3242ms total)
T4560 044:794 JLINK_WriteReg(PSP, 0x20001000)  returns 0x00 (0000ms, 3242ms total)
T4560 044:794 JLINK_WriteReg(CFBP, 0x00000000)  returns 0x00 (0000ms, 3242ms total)
T4560 044:794 JLINK_SetBPEx(Addr = 0x20000000, Type = 0xFFFFFFF2)  returns 0x00000003 (0000ms, 3242ms total)
T4560 044:794 JLINK_Go() -- CPU_ReadMem(4 bytes @ 0xE0001000) (0006ms, 3248ms total)
T4560 044:800 JLINK_IsHalted()  returns FALSE (0002ms, 3250ms total)
T4560 044:874 JLINK_IsHalted()  returns FALSE (0001ms, 3249ms total)
T4560 044:877 JLINK_IsHalted()  returns FALSE (0001ms, 3249ms total)
T4560 044:880 JLINK_IsHalted()  returns FALSE (0001ms, 3249ms total)
T4560 044:883 JLINK_IsHalted()  returns FALSE (0001ms, 3249ms total)
T4560 044:891 JLINK_IsHalted()  returns FALSE (0001ms, 3249ms total)
T4560 044:894 JLINK_IsHalted()  returns FALSE (0001ms, 3249ms total)
T4560 044:897 JLINK_IsHalted()  returns FALSE (0001ms, 3249ms total)
T4560 044:903 JLINK_IsHalted()  returns FALSE (0001ms, 3249ms total)
T4560 044:906 JLINK_IsHalted()  returns FALSE (0001ms, 3249ms total)
T4560 044:909 JLINK_IsHalted()  returns FALSE (0001ms, 3249ms total)
T4560 044:916 JLINK_IsHalted()  returns FALSE (0001ms, 3249ms total)
T4560 044:919 JLINK_IsHalted()  returns FALSE (0001ms, 3249ms total)
T4560 044:922 JLINK_IsHalted()  returns FALSE (0001ms, 3249ms total)
T4560 044:925 JLINK_IsHalted()  returns FALSE (0001ms, 3249ms total)
T4560 044:928 JLINK_IsHalted()  returns FALSE (0001ms, 3249ms total)
T4560 044:931 JLINK_IsHalted()  returns FALSE (0001ms, 3249ms total)
T4560 044:936 JLINK_IsHalted()  returns FALSE (0001ms, 3249ms total)
T4560 044:939 JLINK_IsHalted()  returns FALSE (0001ms, 3249ms total)
T4560 044:942 JLINK_IsHalted()  returns FALSE (0001ms, 3249ms total)
T4560 044:945 JLINK_IsHalted()  returns FALSE (0001ms, 3249ms total)
T4560 044:948 JLINK_IsHalted()  returns FALSE (0001ms, 3249ms total)
T4560 044:951 JLINK_IsHalted()  returns FALSE (0001ms, 3249ms total)
T4560 044:956 JLINK_IsHalted()  returns FALSE (0001ms, 3249ms total)
T4560 044:959 JLINK_IsHalted() -- CPU_ReadMem(2 bytes @ 0x20000000)  returns TRUE (0007ms, 3255ms total)
T4560 044:966 JLINK_ReadReg(R15 (PC))  returns 0x20000000 (0000ms, 3248ms total)
T4560 044:966 JLINK_ClrBPEx(BPHandle = 0x00000003)  returns 0x00 (0001ms, 3249ms total)
T4560 044:967 JLINK_ReadReg(R0)  returns 0x00000000 (0000ms, 3249ms total)
T4560 044:967 JLINK_WriteReg(R0, 0x08004000)  returns 0x00 (0000ms, 3249ms total)
T4560 044:967 JLINK_WriteReg(R1, 0x00004000)  returns 0x00 (0000ms, 3249ms total)
T4560 044:967 JLINK_WriteReg(R2, 0x000000FF)  returns 0x00 (0000ms, 3249ms total)
T4560 044:968 JLINK_WriteReg(R3, 0x00000000)  returns 0x00 (0000ms, 3250ms total)
T4560 044:968 JLINK_WriteReg(R4, 0x00000000)  returns 0x00 (0000ms, 3250ms total)
T4560 044:968 JLINK_WriteReg(R5, 0x00000000)  returns 0x00 (0000ms, 3250ms total)
T4560 044:968 JLINK_WriteReg(R6, 0x00000000)  returns 0x00 (0000ms, 3250ms total)
T4560 044:968 JLINK_WriteReg(R7, 0x00000000)  returns 0x00 (0000ms, 3250ms total)
T4560 044:968 JLINK_WriteReg(R8, 0x00000000)  returns 0x00 (0000ms, 3250ms total)
T4560 044:968 JLINK_WriteReg(R9, 0x2000017C)  returns 0x00 (0000ms, 3250ms total)
T4560 044:968 JLINK_WriteReg(R10, 0x00000000)  returns 0x00 (0000ms, 3250ms total)
T4560 044:968 JLINK_WriteReg(R11, 0x00000000)  returns 0x00 (0000ms, 3250ms total)
T4560 044:968 JLINK_WriteReg(R12, 0x00000000)  returns 0x00 (0000ms, 3250ms total)
T4560 044:968 JLINK_WriteReg(R13 (SP), 0x20001000)  returns 0x00 (0000ms, 3250ms total)
T4560 044:968 JLINK_WriteReg(R14, 0x20000001)  returns 0x00 (0000ms, 3250ms total)
T4560 044:968 JLINK_WriteReg(R15 (PC), 0x20000020)  returns 0x00 (0000ms, 3250ms total)
T4560 044:968 JLINK_WriteReg(XPSR, 0x01000000)  returns 0x00 (0000ms, 3250ms total)
T4560 044:968 JLINK_WriteReg(MSP, 0x20001000)  returns 0x00 (0000ms, 3250ms total)
T4560 044:968 JLINK_WriteReg(PSP, 0x20001000)  returns 0x00 (0000ms, 3250ms total)
T4560 044:968 JLINK_WriteReg(CFBP, 0x00000000)  returns 0x00 (0000ms, 3250ms total)
T4560 044:968 JLINK_SetBPEx(Addr = 0x20000000, Type = 0xFFFFFFF2)  returns 0x00000004 (0000ms, 3250ms total)
T4560 044:968 JLINK_Go() -- CPU_ReadMem(4 bytes @ 0xE0001000) (0006ms, 3256ms total)
T4560 044:974 JLINK_IsHalted() -- CPU_ReadMem(2 bytes @ 0x20000000)  returns TRUE (0009ms, 3265ms total)
T4560 044:983 JLINK_ReadReg(R15 (PC))  returns 0x20000000 (0000ms, 3256ms total)
T4560 044:983 JLINK_ClrBPEx(BPHandle = 0x00000004)  returns 0x00 (0000ms, 3256ms total)
T4560 044:983 JLINK_ReadReg(R0)  returns 0x00000001 (0001ms, 3257ms total)
T4560 044:984 JLINK_WriteReg(R0, 0x08004000)  returns 0x00 (0000ms, 3257ms total)
T4560 044:984 JLINK_WriteReg(R1, 0x00004000)  returns 0x00 (0000ms, 3257ms total)
T4560 044:984 JLINK_WriteReg(R2, 0x000000FF)  returns 0x00 (0000ms, 3257ms total)
T4560 044:984 JLINK_WriteReg(R3, 0x00000000)  returns 0x00 (0000ms, 3257ms total)
T4560 044:984 JLINK_WriteReg(R4, 0x00000000)  returns 0x00 (0000ms, 3257ms total)
T4560 044:984 JLINK_WriteReg(R5, 0x00000000)  returns 0x00 (0000ms, 3257ms total)
T4560 044:984 JLINK_WriteReg(R6, 0x00000000)  returns 0x00 (0000ms, 3257ms total)
T4560 044:984 JLINK_WriteReg(R7, 0x00000000)  returns 0x00 (0000ms, 3257ms total)
T4560 044:984 JLINK_WriteReg(R8, 0x00000000)  returns 0x00 (0000ms, 3257ms total)
T4560 044:984 JLINK_WriteReg(R9, 0x2000017C)  returns 0x00 (0000ms, 3257ms total)
T4560 044:984 JLINK_WriteReg(R10, 0x00000000)  returns 0x00 (0000ms, 3257ms total)
T4560 044:984 JLINK_WriteReg(R11, 0x00000000)  returns 0x00 (0000ms, 3257ms total)
T4560 044:984 JLINK_WriteReg(R12, 0x00000000)  returns 0x00 (0000ms, 3257ms total)
T4560 044:984 JLINK_WriteReg(R13 (SP), 0x20001000)  returns 0x00 (0000ms, 3257ms total)
T4560 044:984 JLINK_WriteReg(R14, 0x20000001)  returns 0x00 (0000ms, 3257ms total)
T4560 044:984 JLINK_WriteReg(R15 (PC), 0x200000BC)  returns 0x00 (0000ms, 3257ms total)
T4560 044:984 JLINK_WriteReg(XPSR, 0x01000000)  returns 0x00 (0000ms, 3257ms total)
T4560 044:984 JLINK_WriteReg(MSP, 0x20001000)  returns 0x00 (0000ms, 3257ms total)
T4560 044:984 JLINK_WriteReg(PSP, 0x20001000)  returns 0x00 (0000ms, 3257ms total)
T4560 044:984 JLINK_WriteReg(CFBP, 0x00000000)  returns 0x00 (0000ms, 3257ms total)
T4560 044:984 JLINK_SetBPEx(Addr = 0x20000000, Type = 0xFFFFFFF2)  returns 0x00000005 (0000ms, 3257ms total)
T4560 044:985 JLINK_Go() -- CPU_ReadMem(4 bytes @ 0xE0001000) (0005ms, 3263ms total)
T4560 044:990 JLINK_IsHalted()  returns FALSE (0002ms, 3265ms total)
T4560 044:997 JLINK_IsHalted()  returns FALSE (0001ms, 3264ms total)
T4560 045:003 JLINK_IsHalted()  returns FALSE (0001ms, 3264ms total)
T4560 045:007 JLINK_IsHalted()  returns FALSE (0000ms, 3263ms total)
T4560 045:009 JLINK_IsHalted()  returns FALSE (0000ms, 3263ms total)
T4560 045:011 JLINK_IsHalted()  returns FALSE (0000ms, 3263ms total)
T4560 045:013 JLINK_IsHalted()  returns FALSE (0000ms, 3263ms total)
T4560 045:014 JLINK_IsHalted()  returns FALSE (0001ms, 3264ms total)
T4560 045:022 JLINK_IsHalted()  returns FALSE (0001ms, 3264ms total)
T4560 045:025 JLINK_IsHalted()  returns FALSE (0000ms, 3263ms total)
T4560 045:027 JLINK_IsHalted()  returns FALSE (0000ms, 3263ms total)
T4560 045:029 JLINK_IsHalted()  returns FALSE (0001ms, 3264ms total)
T4560 045:032 JLINK_IsHalted()  returns FALSE (0001ms, 3264ms total)
T4560 045:038 JLINK_IsHalted()  returns FALSE (0000ms, 3263ms total)
T4560 045:040 JLINK_IsHalted()  returns FALSE (0001ms, 3264ms total)
T4560 045:043 JLINK_IsHalted()  returns FALSE (0001ms, 3264ms total)
T4560 045:046 JLINK_IsHalted()  returns FALSE (0001ms, 3264ms total)
T4560 045:049 JLINK_IsHalted()  returns FALSE (0001ms, 3264ms total)
T4560 045:055 JLINK_IsHalted()  returns FALSE (0001ms, 3264ms total)
T4560 045:058 JLINK_IsHalted()  returns FALSE (0000ms, 3263ms total)
T4560 045:060 JLINK_IsHalted()  returns FALSE (0000ms, 3263ms total)
T4560 045:062 JLINK_IsHalted()  returns FALSE (0001ms, 3264ms total)
T4560 045:065 JLINK_IsHalted()  returns FALSE (0002ms, 3265ms total)
T4560 045:071 JLINK_IsHalted()  returns FALSE (0002ms, 3265ms total)
T4560 045:075 JLINK_IsHalted()  returns FALSE (0002ms, 3265ms total)
T4560 045:079 JLINK_IsHalted()  returns FALSE (0002ms, 3265ms total)
T4560 045:086 JLINK_IsHalted()  returns FALSE (0002ms, 3265ms total)
T4560 045:090 JLINK_IsHalted()  returns FALSE (0002ms, 3265ms total)
T4560 045:094 JLINK_IsHalted()  returns FALSE (0002ms, 3265ms total)
T4560 045:098 JLINK_IsHalted()  returns FALSE (0002ms, 3265ms total)
T4560 045:105 JLINK_IsHalted()  returns FALSE (0002ms, 3265ms total)
T4560 045:109 JLINK_IsHalted()  returns FALSE (0001ms, 3264ms total)
T4560 045:112 JLINK_IsHalted()  returns FALSE (0002ms, 3265ms total)
T4560 045:118 JLINK_IsHalted()  returns FALSE (0002ms, 3265ms total)
T4560 045:122 JLINK_IsHalted()  returns FALSE (0000ms, 3263ms total)
T4560 045:125 JLINK_IsHalted()  returns FALSE (0002ms, 3265ms total)
T4560 045:129 JLINK_IsHalted()  returns FALSE (0002ms, 3265ms total)
T4560 045:135 JLINK_IsHalted()  returns FALSE (0002ms, 3265ms total)
T4560 045:139 JLINK_IsHalted()  returns FALSE (0002ms, 3265ms total)
T4560 045:143 JLINK_IsHalted()  returns FALSE (0002ms, 3265ms total)
T4560 045:150 JLINK_IsHalted() -- CPU_ReadMem(2 bytes @ 0x20000000)  returns TRUE (0008ms, 3271ms total)
T4560 045:159 JLINK_ReadReg(R15 (PC))  returns 0x20000000 (0000ms, 3263ms total)
T4560 045:159 JLINK_ClrBPEx(BPHandle = 0x00000005)  returns 0x00 (0000ms, 3263ms total)
T4560 045:159 JLINK_ReadReg(R0)  returns 0x00000000 (0000ms, 3263ms total)
T4560 045:159 JLINK_WriteReg(R0, 0x08008000)  returns 0x00 (0000ms, 3263ms total)
T4560 045:159 JLINK_WriteReg(R1, 0x00004000)  returns 0x00 (0000ms, 3263ms total)
T4560 045:159 JLINK_WriteReg(R2, 0x000000FF)  returns 0x00 (0001ms, 3264ms total)
T4560 045:160 JLINK_WriteReg(R3, 0x00000000)  returns 0x00 (0000ms, 3264ms total)
T4560 045:160 JLINK_WriteReg(R4, 0x00000000)  returns 0x00 (0000ms, 3264ms total)
T4560 045:160 JLINK_WriteReg(R5, 0x00000000)  returns 0x00 (0000ms, 3264ms total)
T4560 045:160 JLINK_WriteReg(R6, 0x00000000)  returns 0x00 (0000ms, 3264ms total)
T4560 045:160 JLINK_WriteReg(R7, 0x00000000)  returns 0x00 (0000ms, 3264ms total)
T4560 045:160 JLINK_WriteReg(R8, 0x00000000)  returns 0x00 (0000ms, 3264ms total)
T4560 045:160 JLINK_WriteReg(R9, 0x2000017C)  returns 0x00 (0000ms, 3264ms total)
T4560 045:160 JLINK_WriteReg(R10, 0x00000000)  returns 0x00 (0000ms, 3264ms total)
T4560 045:160 JLINK_WriteReg(R11, 0x00000000)  returns 0x00 (0000ms, 3264ms total)
T4560 045:160 JLINK_WriteReg(R12, 0x00000000)  returns 0x00 (0000ms, 3264ms total)
T4560 045:160 JLINK_WriteReg(R13 (SP), 0x20001000)  returns 0x00 (0000ms, 3264ms total)
T4560 045:160 JLINK_WriteReg(R14, 0x20000001)  returns 0x00 (0000ms, 3264ms total)
T4560 045:160 JLINK_WriteReg(R15 (PC), 0x20000020)  returns 0x00 (0000ms, 3264ms total)
T4560 045:160 JLINK_WriteReg(XPSR, 0x01000000)  returns 0x00 (0000ms, 3264ms total)
T4560 045:160 JLINK_WriteReg(MSP, 0x20001000)  returns 0x00 (0000ms, 3264ms total)
T4560 045:160 JLINK_WriteReg(PSP, 0x20001000)  returns 0x00 (0000ms, 3264ms total)
T4560 045:160 JLINK_WriteReg(CFBP, 0x00000000)  returns 0x00 (0000ms, 3264ms total)
T4560 045:160 JLINK_SetBPEx(Addr = 0x20000000, Type = 0xFFFFFFF2)  returns 0x00000006 (0000ms, 3264ms total)
T4560 045:160 JLINK_Go() -- CPU_ReadMem(4 bytes @ 0xE0001000) (0007ms, 3271ms total)
T4560 045:167 JLINK_IsHalted() -- CPU_ReadMem(2 bytes @ 0x20000000)  returns TRUE (0009ms, 3280ms total)
T4560 045:176 JLINK_ReadReg(R15 (PC))  returns 0x20000000 (0000ms, 3271ms total)
T4560 045:176 JLINK_ClrBPEx(BPHandle = 0x00000006)  returns 0x00 (0001ms, 3272ms total)
T4560 045:177 JLINK_ReadReg(R0)  returns 0x00000001 (0000ms, 3272ms total)
T4560 045:177 JLINK_WriteReg(R0, 0x08008000)  returns 0x00 (0000ms, 3272ms total)
T4560 045:177 JLINK_WriteReg(R1, 0x00004000)  returns 0x00 (0000ms, 3272ms total)
T4560 045:177 JLINK_WriteReg(R2, 0x000000FF)  returns 0x00 (0000ms, 3272ms total)
T4560 045:177 JLINK_WriteReg(R3, 0x00000000)  returns 0x00 (0000ms, 3272ms total)
T4560 045:177 JLINK_WriteReg(R4, 0x00000000)  returns 0x00 (0000ms, 3272ms total)
T4560 045:177 JLINK_WriteReg(R5, 0x00000000)  returns 0x00 (0000ms, 3272ms total)
T4560 045:177 JLINK_WriteReg(R6, 0x00000000)  returns 0x00 (0000ms, 3272ms total)
T4560 045:177 JLINK_WriteReg(R7, 0x00000000)  returns 0x00 (0000ms, 3272ms total)
T4560 045:177 JLINK_WriteReg(R8, 0x00000000)  returns 0x00 (0000ms, 3272ms total)
T4560 045:177 JLINK_WriteReg(R9, 0x2000017C)  returns 0x00 (0000ms, 3272ms total)
T4560 045:177 JLINK_WriteReg(R10, 0x00000000)  returns 0x00 (0000ms, 3272ms total)
T4560 045:177 JLINK_WriteReg(R11, 0x00000000)  returns 0x00 (0000ms, 3272ms total)
T4560 045:177 JLINK_WriteReg(R12, 0x00000000)  returns 0x00 (0000ms, 3272ms total)
T4560 045:177 JLINK_WriteReg(R13 (SP), 0x20001000)  returns 0x00 (0000ms, 3272ms total)
T4560 045:177 JLINK_WriteReg(R14, 0x20000001)  returns 0x00 (0000ms, 3272ms total)
T4560 045:177 JLINK_WriteReg(R15 (PC), 0x200000BC)  returns 0x00 (0000ms, 3272ms total)
T4560 045:177 JLINK_WriteReg(XPSR, 0x01000000)  returns 0x00 (0000ms, 3272ms total)
T4560 045:177 JLINK_WriteReg(MSP, 0x20001000)  returns 0x00 (0000ms, 3272ms total)
T4560 045:177 JLINK_WriteReg(PSP, 0x20001000)  returns 0x00 (0000ms, 3272ms total)
T4560 045:177 JLINK_WriteReg(CFBP, 0x00000000)  returns 0x00 (0000ms, 3272ms total)
T4560 045:177 JLINK_SetBPEx(Addr = 0x20000000, Type = 0xFFFFFFF2)  returns 0x00000007 (0000ms, 3272ms total)
T4560 045:177 JLINK_Go() -- CPU_ReadMem(4 bytes @ 0xE0001000) (0006ms, 3278ms total)
T4560 045:183 JLINK_IsHalted()  returns FALSE (0002ms, 3280ms total)
T4560 045:190 JLINK_IsHalted()  returns FALSE (0001ms, 3279ms total)
T4560 045:197 JLINK_IsHalted()  returns FALSE (0000ms, 3278ms total)
T4560 045:199 JLINK_IsHalted()  returns FALSE (0001ms, 3279ms total)
T4560 045:203 JLINK_IsHalted()  returns FALSE (0000ms, 3278ms total)
T4560 045:204 JLINK_IsHalted()  returns FALSE (0000ms, 3278ms total)
T4560 045:206 JLINK_IsHalted()  returns FALSE (0000ms, 3278ms total)
T4560 045:215 JLINK_IsHalted()  returns FALSE (0001ms, 3279ms total)
T4560 045:218 JLINK_IsHalted()  returns FALSE (0001ms, 3279ms total)
T4560 045:221 JLINK_IsHalted()  returns FALSE (0000ms, 3278ms total)
T4560 045:228 JLINK_IsHalted()  returns FALSE (0001ms, 3279ms total)
T4560 045:231 JLINK_IsHalted()  returns FALSE (0001ms, 3279ms total)
T4560 045:234 JLINK_IsHalted()  returns FALSE (0001ms, 3279ms total)
T4560 045:237 JLINK_IsHalted()  returns FALSE (0000ms, 3278ms total)
T4560 045:243 JLINK_IsHalted()  returns FALSE (0000ms, 3278ms total)
T4560 045:246 JLINK_IsHalted()  returns FALSE (0000ms, 3278ms total)
T4560 045:247 JLINK_IsHalted()  returns FALSE (0001ms, 3279ms total)
T4560 045:251 JLINK_IsHalted()  returns FALSE (0000ms, 3278ms total)
T4560 045:254 JLINK_IsHalted()  returns FALSE (0001ms, 3279ms total)
T4560 045:260 JLINK_IsHalted()  returns FALSE (0000ms, 3278ms total)
T4560 045:263 JLINK_IsHalted()  returns FALSE (0000ms, 3278ms total)
T4560 045:265 JLINK_IsHalted()  returns FALSE (0002ms, 3280ms total)
T4560 045:269 JLINK_IsHalted()  returns FALSE (0000ms, 3278ms total)
T4560 045:274 JLINK_IsHalted()  returns FALSE (0001ms, 3279ms total)
T4560 045:278 JLINK_IsHalted()  returns FALSE (0001ms, 3279ms total)
T4560 045:282 JLINK_IsHalted()  returns FALSE (0001ms, 3279ms total)
T4560 045:286 JLINK_IsHalted()  returns FALSE (0000ms, 3278ms total)
T4560 045:291 JLINK_IsHalted()  returns FALSE (0001ms, 3279ms total)
T4560 045:295 JLINK_IsHalted()  returns FALSE (0000ms, 3278ms total)
T4560 045:298 JLINK_IsHalted()  returns FALSE (0002ms, 3280ms total)
T4560 045:302 JLINK_IsHalted()  returns FALSE (0001ms, 3279ms total)
T4560 045:308 JLINK_IsHalted()  returns FALSE (0001ms, 3279ms total)
T4560 045:311 JLINK_IsHalted()  returns FALSE (0000ms, 3278ms total)
T4560 045:313 JLINK_IsHalted()  returns FALSE (0001ms, 3279ms total)
T4560 045:317 JLINK_IsHalted()  returns FALSE (0001ms, 3279ms total)
T4560 045:324 JLINK_IsHalted()  returns FALSE (0001ms, 3279ms total)
T4560 045:327 JLINK_IsHalted()  returns FALSE (0000ms, 3278ms total)
T4560 045:329 JLINK_IsHalted()  returns FALSE (0000ms, 3278ms total)
T4560 045:331 JLINK_IsHalted()  returns FALSE (0000ms, 3278ms total)
T4560 045:336 JLINK_IsHalted()  returns FALSE (0001ms, 3279ms total)
T4560 045:339 JLINK_IsHalted() -- CPU_ReadMem(2 bytes @ 0x20000000)  returns TRUE (0007ms, 3285ms total)
T4560 045:346 JLINK_ReadReg(R15 (PC))  returns 0x20000000 (0000ms, 3278ms total)
T4560 045:347 JLINK_ClrBPEx(BPHandle = 0x00000007)  returns 0x00 (0000ms, 3278ms total)
T4560 045:347 JLINK_ReadReg(R0)  returns 0x00000000 (0000ms, 3278ms total)
T4560 045:347 JLINK_WriteReg(R0, 0x0800C000)  returns 0x00 (0001ms, 3279ms total)
T4560 045:348 JLINK_WriteReg(R1, 0x00004000)  returns 0x00 (0000ms, 3279ms total)
T4560 045:348 JLINK_WriteReg(R2, 0x000000FF)  returns 0x00 (0000ms, 3279ms total)
T4560 045:348 JLINK_WriteReg(R3, 0x00000000)  returns 0x00 (0000ms, 3279ms total)
T4560 045:348 JLINK_WriteReg(R4, 0x00000000)  returns 0x00 (0000ms, 3279ms total)
T4560 045:348 JLINK_WriteReg(R5, 0x00000000)  returns 0x00 (0000ms, 3279ms total)
T4560 045:348 JLINK_WriteReg(R6, 0x00000000)  returns 0x00 (0000ms, 3279ms total)
T4560 045:348 JLINK_WriteReg(R7, 0x00000000)  returns 0x00 (0000ms, 3279ms total)
T4560 045:348 JLINK_WriteReg(R8, 0x00000000)  returns 0x00 (0000ms, 3279ms total)
T4560 045:348 JLINK_WriteReg(R9, 0x2000017C)  returns 0x00 (0000ms, 3279ms total)
T4560 045:348 JLINK_WriteReg(R10, 0x00000000)  returns 0x00 (0000ms, 3279ms total)
T4560 045:348 JLINK_WriteReg(R11, 0x00000000)  returns 0x00 (0000ms, 3279ms total)
T4560 045:348 JLINK_WriteReg(R12, 0x00000000)  returns 0x00 (0000ms, 3279ms total)
T4560 045:348 JLINK_WriteReg(R13 (SP), 0x20001000)  returns 0x00 (0000ms, 3279ms total)
T4560 045:348 JLINK_WriteReg(R14, 0x20000001)  returns 0x00 (0000ms, 3279ms total)
T4560 045:348 JLINK_WriteReg(R15 (PC), 0x20000020)  returns 0x00 (0000ms, 3279ms total)
T4560 045:348 JLINK_WriteReg(XPSR, 0x01000000)  returns 0x00 (0000ms, 3279ms total)
T4560 045:348 JLINK_WriteReg(MSP, 0x20001000)  returns 0x00 (0000ms, 3279ms total)
T4560 045:348 JLINK_WriteReg(PSP, 0x20001000)  returns 0x00 (0000ms, 3279ms total)
T4560 045:348 JLINK_WriteReg(CFBP, 0x00000000)  returns 0x00 (0000ms, 3279ms total)
T4560 045:348 JLINK_SetBPEx(Addr = 0x20000000, Type = 0xFFFFFFF2)  returns 0x00000008 (0000ms, 3279ms total)
T4560 045:348 JLINK_Go() -- CPU_ReadMem(4 bytes @ 0xE0001000) (0007ms, 3286ms total)
T4560 045:355 JLINK_IsHalted() -- CPU_ReadMem(2 bytes @ 0x20000000)  returns TRUE (0009ms, 3295ms total)
T4560 045:364 JLINK_ReadReg(R15 (PC))  returns 0x20000000 (0000ms, 3286ms total)
T4560 045:364 JLINK_ClrBPEx(BPHandle = 0x00000008)  returns 0x00 (0001ms, 3287ms total)
T4560 045:365 JLINK_ReadReg(R0)  returns 0x00000001 (0000ms, 3287ms total)
T4560 045:365 JLINK_WriteReg(R0, 0x0800C000)  returns 0x00 (0000ms, 3287ms total)
T4560 045:365 JLINK_WriteReg(R1, 0x00004000)  returns 0x00 (0000ms, 3287ms total)
T4560 045:365 JLINK_WriteReg(R2, 0x000000FF)  returns 0x00 (0000ms, 3287ms total)
T4560 045:365 JLINK_WriteReg(R3, 0x00000000)  returns 0x00 (0000ms, 3287ms total)
T4560 045:365 JLINK_WriteReg(R4, 0x00000000)  returns 0x00 (0000ms, 3287ms total)
T4560 045:365 JLINK_WriteReg(R5, 0x00000000)  returns 0x00 (0000ms, 3287ms total)
T4560 045:365 JLINK_WriteReg(R6, 0x00000000)  returns 0x00 (0000ms, 3287ms total)
T4560 045:365 JLINK_WriteReg(R7, 0x00000000)  returns 0x00 (0000ms, 3287ms total)
T4560 045:365 JLINK_WriteReg(R8, 0x00000000)  returns 0x00 (0000ms, 3287ms total)
T4560 045:365 JLINK_WriteReg(R9, 0x2000017C)  returns 0x00 (0000ms, 3287ms total)
T4560 045:365 JLINK_WriteReg(R10, 0x00000000)  returns 0x00 (0000ms, 3287ms total)
T4560 045:365 JLINK_WriteReg(R11, 0x00000000)  returns 0x00 (0000ms, 3287ms total)
T4560 045:365 JLINK_WriteReg(R12, 0x00000000)  returns 0x00 (0000ms, 3287ms total)
T4560 045:365 JLINK_WriteReg(R13 (SP), 0x20001000)  returns 0x00 (0000ms, 3287ms total)
T4560 045:365 JLINK_WriteReg(R14, 0x20000001)  returns 0x00 (0000ms, 3287ms total)
T4560 045:365 JLINK_WriteReg(R15 (PC), 0x200000BC)  returns 0x00 (0000ms, 3287ms total)
T4560 045:365 JLINK_WriteReg(XPSR, 0x01000000)  returns 0x00 (0000ms, 3287ms total)
T4560 045:365 JLINK_WriteReg(MSP, 0x20001000)  returns 0x00 (0000ms, 3287ms total)
T4560 045:365 JLINK_WriteReg(PSP, 0x20001000)  returns 0x00 (0000ms, 3287ms total)
T4560 045:365 JLINK_WriteReg(CFBP, 0x00000000)  returns 0x00 (0000ms, 3287ms total)
T4560 045:365 JLINK_SetBPEx(Addr = 0x20000000, Type = 0xFFFFFFF2)  returns 0x00000009 (0001ms, 3288ms total)
T4560 045:366 JLINK_Go() -- CPU_ReadMem(4 bytes @ 0xE0001000) (0005ms, 3293ms total)
T4560 045:371 JLINK_IsHalted()  returns FALSE (0002ms, 3295ms total)
T4560 045:378 JLINK_IsHalted()  returns FALSE (0001ms, 3294ms total)
T4560 045:381 JLINK_IsHalted()  returns FALSE (0001ms, 3294ms total)
T4560 045:387 JLINK_IsHalted()  returns FALSE (0001ms, 3294ms total)
T4560 045:390 JLINK_IsHalted()  returns FALSE (0000ms, 3293ms total)
T4560 045:392 JLINK_IsHalted()  returns FALSE (0000ms, 3293ms total)
T4560 045:394 JLINK_IsHalted()  returns FALSE (0000ms, 3293ms total)
T4560 045:396 JLINK_IsHalted()  returns FALSE (0000ms, 3293ms total)
T4560 045:398 JLINK_IsHalted()  returns FALSE (0001ms, 3294ms total)
T4560 045:404 JLINK_IsHalted()  returns FALSE (0001ms, 3294ms total)
T4560 045:407 JLINK_IsHalted()  returns FALSE (0000ms, 3293ms total)
T4560 045:409 JLINK_IsHalted()  returns FALSE (0000ms, 3293ms total)
T4560 045:411 JLINK_IsHalted()  returns FALSE (0000ms, 3293ms total)
T4560 045:413 JLINK_IsHalted()  returns FALSE (0001ms, 3294ms total)
T4560 045:419 JLINK_IsHalted()  returns FALSE (0001ms, 3294ms total)
T4560 045:422 JLINK_IsHalted()  returns FALSE (0000ms, 3293ms total)
T4560 045:424 JLINK_IsHalted()  returns FALSE (0001ms, 3294ms total)
T4560 045:427 JLINK_IsHalted()  returns FALSE (0000ms, 3293ms total)
T4560 045:429 JLINK_IsHalted()  returns FALSE (0000ms, 3293ms total)
T4560 045:436 JLINK_IsHalted()  returns FALSE (0001ms, 3294ms total)
T4560 045:439 JLINK_IsHalted()  returns FALSE (0000ms, 3293ms total)
T4560 045:441 JLINK_IsHalted()  returns FALSE (0000ms, 3293ms total)
T4560 045:443 JLINK_IsHalted()  returns FALSE (0000ms, 3293ms total)
T4560 045:445 JLINK_IsHalted()  returns FALSE (0000ms, 3293ms total)
T4560 045:451 JLINK_IsHalted()  returns FALSE (0001ms, 3294ms total)
T4560 045:454 JLINK_IsHalted()  returns FALSE (0001ms, 3294ms total)
T4560 045:457 JLINK_IsHalted()  returns FALSE (0000ms, 3293ms total)
T4560 045:459 JLINK_IsHalted()  returns FALSE (0000ms, 3293ms total)
T4560 045:461 JLINK_IsHalted() -- CPU_ReadMem(2 bytes @ 0x20000000)  returns TRUE (0007ms, 3300ms total)
T4560 045:468 JLINK_ReadReg(R15 (PC))  returns 0x20000000 (0000ms, 3293ms total)
T4560 045:468 JLINK_ClrBPEx(BPHandle = 0x00000009)  returns 0x00 (0001ms, 3294ms total)
T4560 045:469 JLINK_ReadReg(R0)  returns 0x00000000 (0000ms, 3294ms total)
T4560 045:469 JLINK_WriteReg(R0, 0x00000001)  returns 0x00 (0000ms, 3294ms total)
T4560 045:469 JLINK_WriteReg(R1, 0x00004000)  returns 0x00 (0000ms, 3294ms total)
T4560 045:469 JLINK_WriteReg(R2, 0x000000FF)  returns 0x00 (0000ms, 3294ms total)
T4560 045:469 JLINK_WriteReg(R3, 0x00000000)  returns 0x00 (0000ms, 3294ms total)
T4560 045:469 JLINK_WriteReg(R4, 0x00000000)  returns 0x00 (0000ms, 3294ms total)
T4560 045:469 JLINK_WriteReg(R5, 0x00000000)  returns 0x00 (0000ms, 3294ms total)
T4560 045:469 JLINK_WriteReg(R6, 0x00000000)  returns 0x00 (0000ms, 3294ms total)
T4560 045:469 JLINK_WriteReg(R7, 0x00000000)  returns 0x00 (0000ms, 3294ms total)
T4560 045:469 JLINK_WriteReg(R8, 0x00000000)  returns 0x00 (0001ms, 3295ms total)
T4560 045:470 JLINK_WriteReg(R9, 0x2000017C)  returns 0x00 (0000ms, 3295ms total)
T4560 045:470 JLINK_WriteReg(R10, 0x00000000)  returns 0x00 (0000ms, 3295ms total)
T4560 045:470 JLINK_WriteReg(R11, 0x00000000)  returns 0x00 (0000ms, 3295ms total)
T4560 045:470 JLINK_WriteReg(R12, 0x00000000)  returns 0x00 (0000ms, 3295ms total)
T4560 045:470 JLINK_WriteReg(R13 (SP), 0x20001000)  returns 0x00 (0000ms, 3295ms total)
T4560 045:470 JLINK_WriteReg(R14, 0x20000001)  returns 0x00 (0000ms, 3295ms total)
T4560 045:470 JLINK_WriteReg(R15 (PC), 0x20000082)  returns 0x00 (0000ms, 3295ms total)
T4560 045:470 JLINK_WriteReg(XPSR, 0x01000000)  returns 0x00 (0000ms, 3295ms total)
T4560 045:470 JLINK_WriteReg(MSP, 0x20001000)  returns 0x00 (0000ms, 3295ms total)
T4560 045:470 JLINK_WriteReg(PSP, 0x20001000)  returns 0x00 (0000ms, 3295ms total)
T4560 045:470 JLINK_WriteReg(CFBP, 0x00000000)  returns 0x00 (0000ms, 3295ms total)
T4560 045:470 JLINK_SetBPEx(Addr = 0x20000000, Type = 0xFFFFFFF2)  returns 0x0000000A (0000ms, 3295ms total)
T4560 045:470 JLINK_Go() -- CPU_ReadMem(4 bytes @ 0xE0001000) (0006ms, 3301ms total)
T4560 045:476 JLINK_IsHalted() -- CPU_ReadMem(2 bytes @ 0x20000000)  returns TRUE (0009ms, 3310ms total)
T4560 045:485 JLINK_ReadReg(R15 (PC))  returns 0x20000000 (0000ms, 3301ms total)
T4560 045:485 JLINK_ClrBPEx(BPHandle = 0x0000000A)  returns 0x00 (0001ms, 3302ms total)
T4560 045:486 JLINK_ReadReg(R0)  returns 0x00000000 (0000ms, 3302ms total)
T4560 045:549 JLINK_WriteMem(0x20000000, 0x0180 Bytes, ...) - Data: 00 BE 0A E0 0D 78 2D 06 68 40 08 24 40 00 00 D3 ... -- CPU_WriteMem(384 bytes @ 0x20000000)  returns 0x180 (0008ms, 3310ms total)
T4560 045:557 JLINK_WriteReg(R0, 0x08000000)  returns 0x00 (0000ms, 3310ms total)
T4560 045:557 JLINK_WriteReg(R1, 0x007A1200)  returns 0x00 (0000ms, 3310ms total)
T4560 045:557 JLINK_WriteReg(R2, 0x00000002)  returns 0x00 (0000ms, 3310ms total)
T4560 045:557 JLINK_WriteReg(R3, 0x00000000)  returns 0x00 (0000ms, 3310ms total)
T4560 045:557 JLINK_WriteReg(R4, 0x00000000)  returns 0x00 (0000ms, 3310ms total)
T4560 045:557 JLINK_WriteReg(R5, 0x00000000)  returns 0x00 (0000ms, 3310ms total)
T4560 045:557 JLINK_WriteReg(R6, 0x00000000)  returns 0x00 (0000ms, 3310ms total)
T4560 045:557 JLINK_WriteReg(R7, 0x00000000)  returns 0x00 (0000ms, 3310ms total)
T4560 045:557 JLINK_WriteReg(R8, 0x00000000)  returns 0x00 (0000ms, 3310ms total)
T4560 045:557 JLINK_WriteReg(R9, 0x2000017C)  returns 0x00 (0000ms, 3310ms total)
T4560 045:557 JLINK_WriteReg(R10, 0x00000000)  returns 0x00 (0000ms, 3310ms total)
T4560 045:557 JLINK_WriteReg(R11, 0x00000000)  returns 0x00 (0000ms, 3310ms total)
T4560 045:557 JLINK_WriteReg(R12, 0x00000000)  returns 0x00 (0000ms, 3310ms total)
T4560 045:557 JLINK_WriteReg(R13 (SP), 0x20001000)  returns 0x00 (0000ms, 3310ms total)
T4560 045:557 JLINK_WriteReg(R14, 0x20000001)  returns 0x00 (0000ms, 3310ms total)
T4560 045:557 JLINK_WriteReg(R15 (PC), 0x20000054)  returns 0x00 (0000ms, 3310ms total)
T4560 045:557 JLINK_WriteReg(XPSR, 0x01000000)  returns 0x00 (0000ms, 3310ms total)
T4560 045:557 JLINK_WriteReg(MSP, 0x20001000)  returns 0x00 (0000ms, 3310ms total)
T4560 045:557 JLINK_WriteReg(PSP, 0x20001000)  returns 0x00 (0000ms, 3310ms total)
T4560 045:557 JLINK_WriteReg(CFBP, 0x00000000)  returns 0x00 (0000ms, 3310ms total)
T4560 045:557 JLINK_SetBPEx(Addr = 0x20000000, Type = 0xFFFFFFF2) -- CPU_ReadMem(4 bytes @ 0x20000000) -- CPU_WriteMem(4 bytes @ 0x20000000) -- CPU_ReadMem(4 bytes @ 0x20000000) -- CPU_WriteMem(4 bytes @ 0x20000000) -- CPU_ReadMem(2 bytes @ 0x20000000)  returns 0x0000000B (0011ms, 3321ms total)
T4560 045:568 JLINK_Go() -- CPU_WriteMem(2 bytes @ 0x20000000) -- CPU_ReadMem(4 bytes @ 0xE0001000) (0009ms, 3330ms total)
T4560 045:577 JLINK_IsHalted() -- CPU_ReadMem(2 bytes @ 0x20000000)  returns TRUE (0009ms, 3339ms total)
T4560 045:586 JLINK_ReadReg(R15 (PC))  returns 0x20000000 (0000ms, 3330ms total)
T4560 045:586 JLINK_ClrBPEx(BPHandle = 0x0000000B)  returns 0x00 (0000ms, 3330ms total)
T4560 045:586 JLINK_ReadReg(R0)  returns 0x00000000 (0000ms, 3330ms total)
T4560 045:586 JLINK_WriteMem(0x20000180, 0x0280 Bytes, ...) - Data: A0 0A 00 20 81 02 00 08 11 57 00 08 01 4B 00 08 ... -- CPU_WriteMem(640 bytes @ 0x20000180)  returns 0x280 (0011ms, 3341ms total)
T4560 045:597 JLINK_WriteMem(0x20000400, 0x0180 Bytes, ...) - Data: 09 48 80 47 09 48 00 47 FE E7 FE E7 FE E7 FE E7 ... -- CPU_WriteMem(384 bytes @ 0x20000400)  returns 0x180 (0008ms, 3349ms total)
T4560 045:605 JLINK_WriteReg(R0, 0x08000000)  returns 0x00 (0000ms, 3349ms total)
T4560 045:605 JLINK_WriteReg(R1, 0x00000400)  returns 0x00 (0000ms, 3349ms total)
T4560 045:605 JLINK_WriteReg(R2, 0x20000180)  returns 0x00 (0000ms, 3349ms total)
T4560 045:605 JLINK_WriteReg(R3, 0x00000000)  returns 0x00 (0000ms, 3349ms total)
T4560 045:605 JLINK_WriteReg(R4, 0x00000000)  returns 0x00 (0000ms, 3349ms total)
T4560 045:605 JLINK_WriteReg(R5, 0x00000000)  returns 0x00 (0000ms, 3349ms total)
T4560 045:605 JLINK_WriteReg(R6, 0x00000000)  returns 0x00 (0000ms, 3349ms total)
T4560 045:605 JLINK_WriteReg(R7, 0x00000000)  returns 0x00 (0000ms, 3349ms total)
T4560 045:605 JLINK_WriteReg(R8, 0x00000000)  returns 0x00 (0000ms, 3349ms total)
T4560 045:605 JLINK_WriteReg(R9, 0x2000017C)  returns 0x00 (0000ms, 3349ms total)
T4560 045:605 JLINK_WriteReg(R10, 0x00000000)  returns 0x00 (0000ms, 3349ms total)
T4560 045:605 JLINK_WriteReg(R11, 0x00000000)  returns 0x00 (0000ms, 3349ms total)
T4560 045:605 JLINK_WriteReg(R12, 0x00000000)  returns 0x00 (0000ms, 3349ms total)
T4560 045:605 JLINK_WriteReg(R13 (SP), 0x20001000)  returns 0x00 (0000ms, 3349ms total)
T4560 045:605 JLINK_WriteReg(R14, 0x20000001)  returns 0x00 (0000ms, 3349ms total)
T4560 045:605 JLINK_WriteReg(R15 (PC), 0x20000108)  returns 0x00 (0000ms, 3349ms total)
T4560 045:605 JLINK_WriteReg(XPSR, 0x01000000)  returns 0x00 (0000ms, 3349ms total)
T4560 045:605 JLINK_WriteReg(MSP, 0x20001000)  returns 0x00 (0000ms, 3349ms total)
T4560 045:605 JLINK_WriteReg(PSP, 0x20001000)  returns 0x00 (0000ms, 3349ms total)
T4560 045:605 JLINK_WriteReg(CFBP, 0x00000000)  returns 0x00 (0000ms, 3349ms total)
T4560 045:605 JLINK_SetBPEx(Addr = 0x20000000, Type = 0xFFFFFFF2)  returns 0x0000000C (0000ms, 3349ms total)
T4560 045:605 JLINK_Go() -- CPU_ReadMem(4 bytes @ 0xE0001000) (0008ms, 3357ms total)
T4560 045:613 JLINK_IsHalted()  returns FALSE (0002ms, 3359ms total)
T4560 045:622 JLINK_IsHalted()  returns FALSE (0004ms, 3361ms total)
T4560 045:630 JLINK_IsHalted() -- CPU_ReadMem(2 bytes @ 0x20000000)  returns TRUE (0009ms, 3366ms total)
T4560 045:639 JLINK_ReadReg(R15 (PC))  returns 0x20000000 (0000ms, 3357ms total)
T4560 045:639 JLINK_ClrBPEx(BPHandle = 0x0000000C)  returns 0x00 (0000ms, 3357ms total)
T4560 045:639 JLINK_ReadReg(R0)  returns 0x00000000 (0000ms, 3357ms total)
T4560 045:640 JLINK_WriteMem(0x20000180, 0x0280 Bytes, ...) - Data: 1E BF 22 FA 05 FC 44 EA 0C 04 20 35 56 EA 04 4C ... -- CPU_WriteMem(640 bytes @ 0x20000180)  returns 0x280 (0011ms, 3368ms total)
T4560 045:651 JLINK_WriteMem(0x20000400, 0x0180 Bytes, ...) - Data: 01 0F 00 DD B9 46 0A 98 50 EA 4A 00 0E D0 44 F6 ... -- CPU_WriteMem(384 bytes @ 0x20000400)  returns 0x180 (0008ms, 3376ms total)
T4560 045:659 JLINK_WriteReg(R0, 0x08000400)  returns 0x00 (0000ms, 3376ms total)
T4560 045:659 JLINK_WriteReg(R1, 0x00000400)  returns 0x00 (0000ms, 3376ms total)
T4560 045:659 JLINK_WriteReg(R2, 0x20000180)  returns 0x00 (0000ms, 3376ms total)
T4560 045:659 JLINK_WriteReg(R3, 0x00000000)  returns 0x00 (0000ms, 3376ms total)
T4560 045:659 JLINK_WriteReg(R4, 0x00000000)  returns 0x00 (0000ms, 3376ms total)
T4560 045:659 JLINK_WriteReg(R5, 0x00000000)  returns 0x00 (0000ms, 3376ms total)
T4560 045:659 JLINK_WriteReg(R6, 0x00000000)  returns 0x00 (0000ms, 3376ms total)
T4560 045:659 JLINK_WriteReg(R7, 0x00000000)  returns 0x00 (0000ms, 3376ms total)
T4560 045:659 JLINK_WriteReg(R8, 0x00000000)  returns 0x00 (0000ms, 3376ms total)
T4560 045:659 JLINK_WriteReg(R9, 0x2000017C)  returns 0x00 (0000ms, 3376ms total)
T4560 045:659 JLINK_WriteReg(R10, 0x00000000)  returns 0x00 (0000ms, 3376ms total)
T4560 045:659 JLINK_WriteReg(R11, 0x00000000)  returns 0x00 (0000ms, 3376ms total)
T4560 045:659 JLINK_WriteReg(R12, 0x00000000)  returns 0x00 (0000ms, 3376ms total)
T4560 045:659 JLINK_WriteReg(R13 (SP), 0x20001000)  returns 0x00 (0000ms, 3376ms total)
T4560 045:659 JLINK_WriteReg(R14, 0x20000001)  returns 0x00 (0000ms, 3376ms total)
T4560 045:659 JLINK_WriteReg(R15 (PC), 0x20000108)  returns 0x00 (0000ms, 3376ms total)
T4560 045:659 JLINK_WriteReg(XPSR, 0x01000000)  returns 0x00 (0000ms, 3376ms total)
T4560 045:659 JLINK_WriteReg(MSP, 0x20001000)  returns 0x00 (0000ms, 3376ms total)
T4560 045:659 JLINK_WriteReg(PSP, 0x20001000)  returns 0x00 (0000ms, 3376ms total)
T4560 045:659 JLINK_WriteReg(CFBP, 0x00000000)  returns 0x00 (0000ms, 3376ms total)
T4560 045:660 JLINK_SetBPEx(Addr = 0x20000000, Type = 0xFFFFFFF2)  returns 0x0000000D (0000ms, 3377ms total)
T4560 045:660 JLINK_Go() -- CPU_ReadMem(4 bytes @ 0xE0001000) (0005ms, 3382ms total)
T4560 045:665 JLINK_IsHalted()  returns FALSE (0002ms, 3384ms total)
T4560 045:673 JLINK_IsHalted()  returns FALSE (0001ms, 3383ms total)
T4560 045:677 JLINK_IsHalted()  returns FALSE (0000ms, 3382ms total)
T4560 045:679 JLINK_IsHalted()  returns FALSE (0000ms, 3382ms total)
T4560 045:680 JLINK_IsHalted() -- CPU_ReadMem(2 bytes @ 0x20000000)  returns TRUE (0008ms, 3390ms total)
T4560 045:688 JLINK_ReadReg(R15 (PC))  returns 0x20000000 (0000ms, 3382ms total)
T4560 045:688 JLINK_ClrBPEx(BPHandle = 0x0000000D)  returns 0x00 (0001ms, 3383ms total)
T4560 045:689 JLINK_ReadReg(R0)  returns 0x00000000 (0000ms, 3383ms total)
T4560 045:689 JLINK_WriteMem(0x20000180, 0x0280 Bytes, ...) - Data: 0A 01 06 F0 06 F9 02 46 0B 98 C0 0F 01 D0 2D 20 ... -- CPU_WriteMem(640 bytes @ 0x20000180)  returns 0x280 (0012ms, 3395ms total)
T4560 045:701 JLINK_WriteMem(0x20000400, 0x0180 Bytes, ...) - Data: 5C 04 00 20 30 B5 B0 F1 0A 02 4F EA 90 0E 71 F1 ... -- CPU_WriteMem(384 bytes @ 0x20000400)  returns 0x180 (0008ms, 3403ms total)
T4560 045:709 JLINK_WriteReg(R0, 0x08000800)  returns 0x00 (0000ms, 3403ms total)
T4560 045:709 JLINK_WriteReg(R1, 0x00000400)  returns 0x00 (0000ms, 3403ms total)
T4560 045:709 JLINK_WriteReg(R2, 0x20000180)  returns 0x00 (0000ms, 3403ms total)
T4560 045:709 JLINK_WriteReg(R3, 0x00000000)  returns 0x00 (0000ms, 3403ms total)
T4560 045:709 JLINK_WriteReg(R4, 0x00000000)  returns 0x00 (0000ms, 3403ms total)
T4560 045:709 JLINK_WriteReg(R5, 0x00000000)  returns 0x00 (0000ms, 3403ms total)
T4560 045:709 JLINK_WriteReg(R6, 0x00000000)  returns 0x00 (0000ms, 3403ms total)
T4560 045:709 JLINK_WriteReg(R7, 0x00000000)  returns 0x00 (0000ms, 3403ms total)
T4560 045:709 JLINK_WriteReg(R8, 0x00000000)  returns 0x00 (0000ms, 3403ms total)
T4560 045:709 JLINK_WriteReg(R9, 0x2000017C)  returns 0x00 (0000ms, 3403ms total)
T4560 045:709 JLINK_WriteReg(R10, 0x00000000)  returns 0x00 (0000ms, 3403ms total)
T4560 045:709 JLINK_WriteReg(R11, 0x00000000)  returns 0x00 (0000ms, 3403ms total)
T4560 045:709 JLINK_WriteReg(R12, 0x00000000)  returns 0x00 (0000ms, 3403ms total)
T4560 045:709 JLINK_WriteReg(R13 (SP), 0x20001000)  returns 0x00 (0000ms, 3403ms total)
T4560 045:709 JLINK_WriteReg(R14, 0x20000001)  returns 0x00 (0000ms, 3403ms total)
T4560 045:709 JLINK_WriteReg(R15 (PC), 0x20000108)  returns 0x00 (0000ms, 3403ms total)
T4560 045:709 JLINK_WriteReg(XPSR, 0x01000000)  returns 0x00 (0000ms, 3403ms total)
T4560 045:709 JLINK_WriteReg(MSP, 0x20001000)  returns 0x00 (0000ms, 3403ms total)
T4560 045:709 JLINK_WriteReg(PSP, 0x20001000)  returns 0x00 (0000ms, 3403ms total)
T4560 045:709 JLINK_WriteReg(CFBP, 0x00000000)  returns 0x00 (0000ms, 3403ms total)
